
**** 05/05/24 21:00:06 ******* PSpice Lite (March 2016) ******* ID# 10813 ****

 ** Profile: "SCHEMATIC1-simulate7_2"  [ c:\users\user\desktop\codespace\pspiceprj\simulate7-pspicefiles\schematic1\simulate7_2.sim ]


 ****     CIRCUIT DESCRIPTION


******************************************************************************




** Creating circuit file "simulate7_2.cir" 
** WARNING: THIS AUTOMATICALLY GENERATED FILE MAY BE OVERWRITTEN BY SUBSEQUENT SIMULATIONS

*Libraries: 
* Profile Libraries :
* Local Libraries :
* From [PSPICE NETLIST] section of C:\SPB_Data\cdssetup\OrCAD_PSpice\17.2.0\PSpice.ini file:
.lib "nomd.lib" 

*Analysis directives: 
.TRAN  0 5ms 0 1us 
.STEP PARAM RL LIST 1.0k, 1.5k, 2.0k, 2.4k, 3.0k, 3.6k, 4.3k 
.OPTIONS ADVCONV
.PROBE64 V(alias(*)) I(alias(*)) W(alias(*)) D(alias(*)) NOISE(alias(*)) 
.INC "..\SCHEMATIC1.net" 



**** INCLUDING SCHEMATIC1.net ****
* source SIMULATE7
C_Cc1         N00271 N00278  100uF  TC=0,0 
C_Cc2         VCE VOUT  100uF  TC=0,0 
R_Rs         VS N00271  0.5k TC=0,0 
R_R2         0 N00278  18k TC=0,0 
R_R1         N00278 VCC  120k TC=0,0 
R_RC         VCE VCC  0.75k TC=0,0 
R_RL         0 VOUT  {RL} TC=0,0 
Q_Q1         VCE N00278 0 Q2N3904
V_Vs         VS 0  
+SIN 0 50mV 1kHz 0 0 0
V_VCC         VCC 0 15V
.PARAM  rl=0.51k

**** RESUMING simulate7_2.cir ****
.END

**** 05/05/24 21:00:06 ******* PSpice Lite (March 2016) ******* ID# 10813 ****

 ** Profile: "SCHEMATIC1-simulate7_2"  [ c:\users\user\desktop\codespace\pspiceprj\simulate7-pspicefiles\schematic1\simulate7_2.sim ]


 ****     BJT MODEL PARAMETERS


******************************************************************************




               Q2N3904         
               NPN             
       LEVEL    1            
          IS    6.734000E-15 
          BF  416.4          
          NF    1            
         VAF   74.03         
         IKF     .06678      
         ISE    6.734000E-15 
          NE    1.259        
          BR     .7371       
          NR    1            
         ISS    0            
          RB   10            
          RE    0            
          RC    1            
         CJE    4.493000E-12 
         VJE     .75         
         MJE     .2593       
         CJC    3.638000E-12 
         VJC     .75         
         MJC     .3085       
        XCJC    1            
         CJS    0            
         VJS     .75         
          TF  301.200000E-12 
         XTF    2            
         VTF    4            
         ITF     .4          
          TR  239.500000E-09 
         XTB    1.5          
          KF    0            
          AF    1            
          CN    2.42         
           D     .87         


**** 05/05/24 21:00:06 ******* PSpice Lite (March 2016) ******* ID# 10813 ****

 ** Profile: "SCHEMATIC1-simulate7_2"  [ c:\users\user\desktop\codespace\pspiceprj\simulate7-pspicefiles\schematic1\simulate7_2.sim ]


 ****     INITIAL TRANSIENT SOLUTION       TEMPERATURE =   27.000 DEG C

 ****     CURRENT STEP                     PARAM RL =    1.0000E+03


******************************************************************************



 NODE   VOLTAGE     NODE   VOLTAGE     NODE   VOLTAGE     NODE   VOLTAGE


(   VS)    0.0000  (  VCC)   15.0000  (  VCE)    5.1331  ( VOUT)    0.0000      

(N00271)    0.0000 (N00278)     .7357 




    VOLTAGE SOURCE CURRENTS
    NAME         CURRENT

    V_Vs         0.000E+00
    V_VCC       -1.327E-02

    TOTAL POWER DISSIPATION   1.99E-01  WATTS


**** 05/05/24 21:00:06 ******* PSpice Lite (March 2016) ******* ID# 10813 ****

 ** Profile: "SCHEMATIC1-simulate7_2"  [ c:\users\user\desktop\codespace\pspiceprj\simulate7-pspicefiles\schematic1\simulate7_2.sim ]


 ****     INITIAL TRANSIENT SOLUTION       TEMPERATURE =   27.000 DEG C

 ****     CURRENT STEP                     PARAM RL =    1.5000E+03


******************************************************************************



 NODE   VOLTAGE     NODE   VOLTAGE     NODE   VOLTAGE     NODE   VOLTAGE


(   VS)    0.0000  (  VCC)   15.0000  (  VCE)    5.1331  ( VOUT)    0.0000      

(N00271)    0.0000 (N00278)     .7357 




    VOLTAGE SOURCE CURRENTS
    NAME         CURRENT

    V_Vs         0.000E+00
    V_VCC       -1.327E-02

    TOTAL POWER DISSIPATION   1.99E-01  WATTS


**** 05/05/24 21:00:06 ******* PSpice Lite (March 2016) ******* ID# 10813 ****

 ** Profile: "SCHEMATIC1-simulate7_2"  [ c:\users\user\desktop\codespace\pspiceprj\simulate7-pspicefiles\schematic1\simulate7_2.sim ]


 ****     INITIAL TRANSIENT SOLUTION       TEMPERATURE =   27.000 DEG C

 ****     CURRENT STEP                     PARAM RL =    2.0000E+03


******************************************************************************



 NODE   VOLTAGE     NODE   VOLTAGE     NODE   VOLTAGE     NODE   VOLTAGE


(   VS)    0.0000  (  VCC)   15.0000  (  VCE)    5.1331  ( VOUT)    0.0000      

(N00271)    0.0000 (N00278)     .7357 




    VOLTAGE SOURCE CURRENTS
    NAME         CURRENT

    V_Vs         0.000E+00
    V_VCC       -1.327E-02

    TOTAL POWER DISSIPATION   1.99E-01  WATTS


**** 05/05/24 21:00:06 ******* PSpice Lite (March 2016) ******* ID# 10813 ****

 ** Profile: "SCHEMATIC1-simulate7_2"  [ c:\users\user\desktop\codespace\pspiceprj\simulate7-pspicefiles\schematic1\simulate7_2.sim ]


 ****     INITIAL TRANSIENT SOLUTION       TEMPERATURE =   27.000 DEG C

 ****     CURRENT STEP                     PARAM RL =    2.4000E+03


******************************************************************************



 NODE   VOLTAGE     NODE   VOLTAGE     NODE   VOLTAGE     NODE   VOLTAGE


(   VS)    0.0000  (  VCC)   15.0000  (  VCE)    5.1331  ( VOUT)    0.0000      

(N00271)    0.0000 (N00278)     .7357 




    VOLTAGE SOURCE CURRENTS
    NAME         CURRENT

    V_Vs         0.000E+00
    V_VCC       -1.327E-02

    TOTAL POWER DISSIPATION   1.99E-01  WATTS


**** 05/05/24 21:00:06 ******* PSpice Lite (March 2016) ******* ID# 10813 ****

 ** Profile: "SCHEMATIC1-simulate7_2"  [ c:\users\user\desktop\codespace\pspiceprj\simulate7-pspicefiles\schematic1\simulate7_2.sim ]


 ****     INITIAL TRANSIENT SOLUTION       TEMPERATURE =   27.000 DEG C

 ****     CURRENT STEP                     PARAM RL =    3.0000E+03


******************************************************************************



 NODE   VOLTAGE     NODE   VOLTAGE     NODE   VOLTAGE     NODE   VOLTAGE


(   VS)    0.0000  (  VCC)   15.0000  (  VCE)    5.1331  ( VOUT)    0.0000      

(N00271)    0.0000 (N00278)     .7357 




    VOLTAGE SOURCE CURRENTS
    NAME         CURRENT

    V_Vs         0.000E+00
    V_VCC       -1.327E-02

    TOTAL POWER DISSIPATION   1.99E-01  WATTS


**** 05/05/24 21:00:06 ******* PSpice Lite (March 2016) ******* ID# 10813 ****

 ** Profile: "SCHEMATIC1-simulate7_2"  [ c:\users\user\desktop\codespace\pspiceprj\simulate7-pspicefiles\schematic1\simulate7_2.sim ]


 ****     INITIAL TRANSIENT SOLUTION       TEMPERATURE =   27.000 DEG C

 ****     CURRENT STEP                     PARAM RL =    3.6000E+03


******************************************************************************



 NODE   VOLTAGE     NODE   VOLTAGE     NODE   VOLTAGE     NODE   VOLTAGE


(   VS)    0.0000  (  VCC)   15.0000  (  VCE)    5.1331  ( VOUT)    0.0000      

(N00271)    0.0000 (N00278)     .7357 




    VOLTAGE SOURCE CURRENTS
    NAME         CURRENT

    V_Vs         0.000E+00
    V_VCC       -1.327E-02

    TOTAL POWER DISSIPATION   1.99E-01  WATTS


**** 05/05/24 21:00:06 ******* PSpice Lite (March 2016) ******* ID# 10813 ****

 ** Profile: "SCHEMATIC1-simulate7_2"  [ c:\users\user\desktop\codespace\pspiceprj\simulate7-pspicefiles\schematic1\simulate7_2.sim ]


 ****     INITIAL TRANSIENT SOLUTION       TEMPERATURE =   27.000 DEG C

 ****     CURRENT STEP                     PARAM RL =    4.3000E+03


******************************************************************************



 NODE   VOLTAGE     NODE   VOLTAGE     NODE   VOLTAGE     NODE   VOLTAGE


(   VS)    0.0000  (  VCC)   15.0000  (  VCE)    5.1331  ( VOUT)    0.0000      

(N00271)    0.0000 (N00278)     .7357 




    VOLTAGE SOURCE CURRENTS
    NAME         CURRENT

    V_Vs         0.000E+00
    V_VCC       -1.327E-02

    TOTAL POWER DISSIPATION   1.99E-01  WATTS



          JOB CONCLUDED

**** 05/05/24 21:00:06 ******* PSpice Lite (March 2016) ******* ID# 10813 ****

 ** Profile: "SCHEMATIC1-simulate7_2"  [ c:\users\user\desktop\codespace\pspiceprj\simulate7-pspicefiles\schematic1\simulate7_2.sim ]


 ****     JOB STATISTICS SUMMARY

 ****     CURRENT STEP                     PARAM RL =    4.3000E+03


******************************************************************************



  Total job time (using Solver 1)   =        1.09
