
**** 03/21/24 19:33:23 ******* PSpice Lite (March 2016) ******* ID# 10813 ****

 ** Profile: "SCHEMATIC1-Clipper1"  [ c:\cadence\mjproj\clipper1-pspicefiles\schematic1\clipper1.sim ] 


 ****     CIRCUIT DESCRIPTION


******************************************************************************




** Creating circuit file "Clipper1.cir" 
** WARNING: THIS AUTOMATICALLY GENERATED FILE MAY BE OVERWRITTEN BY SUBSEQUENT SIMULATIONS

*Libraries: 
* Profile Libraries :
* Local Libraries :
* From [PSPICE NETLIST] section of C:\Users\myhom\AppData\Roaming\SPB_Data\cdssetup\OrCAD_PSpice\17.2.0\PSpice.ini file:
.lib "nomd.lib" 

*Analysis directives: 
.TRAN  0 4ms 0 1us 
.STEP LIN V_VB 1V 5V 1V 
.OPTIONS ADVCONV
.PROBE64 V(alias(*)) I(alias(*)) W(alias(*)) D(alias(*)) NOISE(alias(*)) 
.INC "..\SCHEMATIC1.net" 



**** INCLUDING SCHEMATIC1.net ****
* source CLIPPER1
V_VB         0 N002811 {VB}
R_R1         VS VO  1k TC=0,0 
V_V1         VS 0  
+SIN 0 5V 1kHz 0 0 0
D_D1         N002811 VO D1N4004 
.PARAM  vb=1v

**** RESUMING Clipper1.cir ****
.END

**** 03/21/24 19:33:23 ******* PSpice Lite (March 2016) ******* ID# 10813 ****

 ** Profile: "SCHEMATIC1-Clipper1"  [ c:\cadence\mjproj\clipper1-pspicefiles\schematic1\clipper1.sim ] 


 ****     Diode MODEL PARAMETERS


******************************************************************************




               D1N4004         D1N4001         
          IS   14.110000E-09   14.110000E-09 
           N    1.984           1.984        
         IKF   94.81           94.81         
          BV  600              75            
         IBV   10.000000E-06   10.000000E-06 
          RS     .03389          .03389      
          TT    5.700000E-06    5.700000E-06 
         CJO   25.890000E-12   25.890000E-12 
          VJ     .3245           .3245       
           M     .44             .44         


**** 03/21/24 19:33:23 ******* PSpice Lite (March 2016) ******* ID# 10813 ****

 ** Profile: "SCHEMATIC1-Clipper1"  [ c:\cadence\mjproj\clipper1-pspicefiles\schematic1\clipper1.sim ] 


 ****     INITIAL TRANSIENT SOLUTION       TEMPERATURE =   27.000 DEG C

 ****     CURRENT STEP                     V_VB =    1     


******************************************************************************



 NODE   VOLTAGE     NODE   VOLTAGE     NODE   VOLTAGE     NODE   VOLTAGE


(   VO)-14.11E-06  (   VS)    0.0000  (N002811)   -1.0000                   




    VOLTAGE SOURCE CURRENTS
    NAME         CURRENT

    V_VB        -1.411E-08
    V_V1        -1.411E-08

    TOTAL POWER DISSIPATION   1.41E-08  WATTS


**** 03/21/24 19:33:23 ******* PSpice Lite (March 2016) ******* ID# 10813 ****

 ** Profile: "SCHEMATIC1-Clipper1"  [ c:\cadence\mjproj\clipper1-pspicefiles\schematic1\clipper1.sim ] 


 ****     INITIAL TRANSIENT SOLUTION       TEMPERATURE =   27.000 DEG C

 ****     CURRENT STEP                     V_VB =    2     


******************************************************************************



 NODE   VOLTAGE     NODE   VOLTAGE     NODE   VOLTAGE     NODE   VOLTAGE


(   VO)-14.11E-06  (   VS)    0.0000  (N002811)   -2.0000                   




    VOLTAGE SOURCE CURRENTS
    NAME         CURRENT

    V_VB        -1.411E-08
    V_V1        -1.411E-08

    TOTAL POWER DISSIPATION   2.82E-08  WATTS


**** 03/21/24 19:33:23 ******* PSpice Lite (March 2016) ******* ID# 10813 ****

 ** Profile: "SCHEMATIC1-Clipper1"  [ c:\cadence\mjproj\clipper1-pspicefiles\schematic1\clipper1.sim ] 


 ****     INITIAL TRANSIENT SOLUTION       TEMPERATURE =   27.000 DEG C

 ****     CURRENT STEP                     V_VB =    3     


******************************************************************************



 NODE   VOLTAGE     NODE   VOLTAGE     NODE   VOLTAGE     NODE   VOLTAGE


(   VO)-14.11E-06  (   VS)    0.0000  (N002811)   -3.0000                   




    VOLTAGE SOURCE CURRENTS
    NAME         CURRENT

    V_VB        -1.411E-08
    V_V1        -1.411E-08

    TOTAL POWER DISSIPATION   4.23E-08  WATTS


**** 03/21/24 19:33:23 ******* PSpice Lite (March 2016) ******* ID# 10813 ****

 ** Profile: "SCHEMATIC1-Clipper1"  [ c:\cadence\mjproj\clipper1-pspicefiles\schematic1\clipper1.sim ] 


 ****     INITIAL TRANSIENT SOLUTION       TEMPERATURE =   27.000 DEG C

 ****     CURRENT STEP                     V_VB =    4     


******************************************************************************



 NODE   VOLTAGE     NODE   VOLTAGE     NODE   VOLTAGE     NODE   VOLTAGE


(   VO)-14.11E-06  (   VS)    0.0000  (N002811)   -4.0000                   




    VOLTAGE SOURCE CURRENTS
    NAME         CURRENT

    V_VB        -1.411E-08
    V_V1        -1.411E-08

    TOTAL POWER DISSIPATION   5.65E-08  WATTS


**** 03/21/24 19:33:23 ******* PSpice Lite (March 2016) ******* ID# 10813 ****

 ** Profile: "SCHEMATIC1-Clipper1"  [ c:\cadence\mjproj\clipper1-pspicefiles\schematic1\clipper1.sim ] 


 ****     INITIAL TRANSIENT SOLUTION       TEMPERATURE =   27.000 DEG C

 ****     CURRENT STEP                     V_VB =    5     


******************************************************************************



 NODE   VOLTAGE     NODE   VOLTAGE     NODE   VOLTAGE     NODE   VOLTAGE


(   VO)-14.12E-06  (   VS)    0.0000  (N002811)   -5.0000                   




    VOLTAGE SOURCE CURRENTS
    NAME         CURRENT

    V_VB        -1.412E-08
    V_V1        -1.412E-08

    TOTAL POWER DISSIPATION   7.06E-08  WATTS



          JOB CONCLUDED

**** 03/21/24 19:33:23 ******* PSpice Lite (March 2016) ******* ID# 10813 ****

 ** Profile: "SCHEMATIC1-Clipper1"  [ c:\cadence\mjproj\clipper1-pspicefiles\schematic1\clipper1.sim ] 


 ****     JOB STATISTICS SUMMARY

 ****     CURRENT STEP                     V_VB =    5     


******************************************************************************



  Total job time (using Solver 1)   =         .55
