
**** 05/01/24 14:34:52 ******* PSpice Lite (March 2016) ******* ID# 10813 ****

 ** Profile: "SCHEMATIC1-bias"  [ c:\users\user\desktop\codespace\pspiceprj\exp6_1-pspicefiles\schematic1\bias.sim ] 


 ****     CIRCUIT DESCRIPTION


******************************************************************************




** Creating circuit file "bias.cir" 
** WARNING: THIS AUTOMATICALLY GENERATED FILE MAY BE OVERWRITTEN BY SUBSEQUENT SIMULATIONS

*Libraries: 
* Profile Libraries :
* Local Libraries :
* From [PSPICE NETLIST] section of C:\SPB_Data\cdssetup\OrCAD_PSpice\17.2.0\PSpice.ini file:
.lib "nomd.lib" 

*Analysis directives: 
.OP
.OPTIONS ADVCONV
.PROBE64 V(alias(*)) I(alias(*)) W(alias(*)) D(alias(*)) NOISE(alias(*)) 
.INC "..\SCHEMATIC1.net" 



**** INCLUDING SCHEMATIC1.net ****
* source EXP6_1
Q_Q1         N15216 N14388 0 Q2N4401
V_V1         N14441 0 10V
R_R1         N14388 N14441  220k TC=0,0 
R_R2         0 N14388  39k TC=0,0 
R_R3         N15216 N14441  2.7k TC=0,0 
Q_Q2         N16850 N16856 N17152 Q2N4401
R_R5         N16856 N16788  100k TC=0,0 
R_R4         N16850 N16788  1.8k TC=0,0 
V_V2         N16788 0 10V
R_R6         0 N16856  33k TC=0,0 
R_R7         0 N17152  0.2k TC=0,0 
R_R8         N18254 N18242  40k TC=0,0 
R_R9         N18386 N18242  1k TC=0,0 
Q_Q3         N18386 N18254 N18580 Q2N2222
V_VCC         N18242 0 12V
R_R10         0 N18254  16.2k TC=0,0 
R_R11         0 N18580  0.5k TC=0,0 

**** RESUMING bias.cir ****
.END

**** 05/01/24 14:34:52 ******* PSpice Lite (March 2016) ******* ID# 10813 ****

 ** Profile: "SCHEMATIC1-bias"  [ c:\users\user\desktop\codespace\pspiceprj\exp6_1-pspicefiles\schematic1\bias.sim ] 


 ****     BJT MODEL PARAMETERS


******************************************************************************




               Q2N4401         Q2N2222         
               NPN             NPN             
       LEVEL    1               1            
          IS   26.030000E-15   14.340000E-15 
          BF  378.9           255.9          
          NF    1               1            
         VAF   90.7            74.03         
         IKF     .3656           .2847       
         ISE  183.000000E-15   14.340000E-15 
          NE    1.433           1.307        
          BR    1.01            6.092        
          NR    1               1            
         VAR  100                            
         ISS    0               0            
          RB                   10            
          RE    0               0            
          RC     .5             1            
         CJE   24.070000E-12   22.010000E-12 
         VJE     .75             .75         
         MJE     .3641           .377        
         CJC   11.010000E-12    7.306000E-12 
         VJC     .75             .75         
         MJC     .3763           .3416       
        XCJC    1               1            
         CJS    0               0            
         VJS     .75             .75         
          TF  466.500000E-12  411.100000E-12 
         XTF                    3            
         VTF                    1.7          
         ITF                     .6          
          TR  233.700000E-09   46.910000E-09 
         XTB    1.5             1.5          
          KF    0               0            
          AF    1               1            
          CN    2.42            2.42         
           D     .87             .87         


**** 05/01/24 14:34:52 ******* PSpice Lite (March 2016) ******* ID# 10813 ****

 ** Profile: "SCHEMATIC1-bias"  [ c:\users\user\desktop\codespace\pspiceprj\exp6_1-pspicefiles\schematic1\bias.sim ] 


 ****     SMALL SIGNAL BIAS SOLUTION       TEMPERATURE =   27.000 DEG C


******************************************************************************



 NODE   VOLTAGE     NODE   VOLTAGE     NODE   VOLTAGE     NODE   VOLTAGE


(N14388)     .6644 (N14441)   10.0000 (N15216)     .1760 (N16788)   10.0000     

(N16850)    1.1649 (N16856)    1.6605 (N17152)     .9883 (N18242)   12.0000     

(N18254)    3.1400 (N18386)    7.1200 (N18580)    2.4539 




    VOLTAGE SOURCE CURRENTS
    NAME         CURRENT

    V_V1        -3.681E-03
    V_V2        -4.992E-03
    V_VCC       -5.102E-03

    TOTAL POWER DISSIPATION   1.48E-01  WATTS


**** 05/01/24 14:34:52 ******* PSpice Lite (March 2016) ******* ID# 10813 ****

 ** Profile: "SCHEMATIC1-bias"  [ c:\users\user\desktop\codespace\pspiceprj\exp6_1-pspicefiles\schematic1\bias.sim ] 


 ****     OPERATING POINT INFORMATION      TEMPERATURE =   27.000 DEG C


******************************************************************************






**** BIPOLAR JUNCTION TRANSISTORS


NAME         Q_Q1        Q_Q2        Q_Q3      
MODEL        Q2N4401     Q2N4401     Q2N2222   
IB           2.54E-05    3.31E-05    2.77E-05 
IC           3.64E-03    4.91E-03    4.88E-03 
VBE          6.64E-01    6.72E-01    6.86E-01 
VBC          4.88E-01    4.96E-01   -3.98E+00 
VCE          1.76E-01    1.77E-01    4.67E+00 
BETADC       1.43E+02    1.48E+02    1.76E+02 
GM           1.39E-01    1.87E-01    1.86E-01 
RPI          1.47E+03    1.13E+03    1.01E+03 
RX           0.00E+00    0.00E+00    1.00E+01 
RO           4.79E+03    3.55E+03    1.60E+04 
CBE          1.05E-10    1.27E-10    1.14E-10 
CBC          5.61E-11    7.05E-11    3.90E-12 
CJS          0.00E+00    0.00E+00    0.00E+00 
BETAAC       2.04E+02    2.11E+02    1.88E+02 
CBX/CBX2     0.00E+00    0.00E+00    0.00E+00 
FT/FT2       1.38E+08    1.51E+08    2.51E+08 



          JOB CONCLUDED

**** 05/01/24 14:34:52 ******* PSpice Lite (March 2016) ******* ID# 10813 ****

 ** Profile: "SCHEMATIC1-bias"  [ c:\users\user\desktop\codespace\pspiceprj\exp6_1-pspicefiles\schematic1\bias.sim ] 


 ****     JOB STATISTICS SUMMARY


******************************************************************************



  Total job time (using Solver 1)   =         .05
