
**** 04/27/24 14:51:56 ******* PSpice Lite (March 2016) ******* ID# 10813 ****

 ** Profile: "SCHEMATIC1-bias"  [ C:\Users\user\Desktop\Codespace\pspicePrj\exp6_1-pspicefiles\schematic1\bias.sim ] 


 ****     CIRCUIT DESCRIPTION


******************************************************************************




** Creating circuit file "bias.cir" 
** WARNING: THIS AUTOMATICALLY GENERATED FILE MAY BE OVERWRITTEN BY SUBSEQUENT SIMULATIONS

*Libraries: 
* Profile Libraries :
* Local Libraries :
* From [PSPICE NETLIST] section of C:\SPB_Data\cdssetup\OrCAD_PSpice\17.2.0\PSpice.ini file:
.lib "nomd.lib" 

*Analysis directives: 
.OP
.OPTIONS ADVCONV
.PROBE64 V(alias(*)) I(alias(*)) W(alias(*)) D(alias(*)) NOISE(alias(*)) 
.INC "..\SCHEMATIC1.net" 



**** INCLUDING SCHEMATIC1.net ****
* source EXP6_1
Q_Q1         N15216 N14388 0 Q2N4401
V_V1         N14441 0 10Vdc
R_R1         N14388 N14441  220k TC=0,0 
R_R2         0 N14388  39k TC=0,0 
R_R3         N15216 N14441  0.47k TC=0,0 

**** RESUMING bias.cir ****
.END

**** 04/27/24 14:51:56 ******* PSpice Lite (March 2016) ******* ID# 10813 ****

 ** Profile: "SCHEMATIC1-bias"  [ C:\Users\user\Desktop\Codespace\pspicePrj\exp6_1-pspicefiles\schematic1\bias.sim ] 


 ****     BJT MODEL PARAMETERS


******************************************************************************




               Q2N4401         
               NPN             
       LEVEL    1            
          IS   26.030000E-15 
          BF  378.9          
          NF    1            
         VAF   90.7          
         IKF     .3656       
         ISE  183.000000E-15 
          NE    1.433        
          BR    1.01         
          NR    1            
         VAR  100            
         ISS    0            
          RE    0            
          RC     .5          
         CJE   24.070000E-12 
         VJE     .75         
         MJE     .3641       
         CJC   11.010000E-12 
         VJC     .75         
         MJC     .3763       
        XCJC    1            
         CJS    0            
         VJS     .75         
          TF  466.500000E-12 
          TR  233.700000E-09 
         XTB    1.5          
          KF    0            
          AF    1            
          CN    2.42         
           D     .87         


**** 04/27/24 14:51:56 ******* PSpice Lite (March 2016) ******* ID# 10813 ****

 ** Profile: "SCHEMATIC1-bias"  [ C:\Users\user\Desktop\Codespace\pspicePrj\exp6_1-pspicefiles\schematic1\bias.sim ] 


 ****     SMALL SIGNAL BIAS SOLUTION       TEMPERATURE =   27.000 DEG C


******************************************************************************



 NODE   VOLTAGE     NODE   VOLTAGE     NODE   VOLTAGE     NODE   VOLTAGE


(N14388)     .6700 (N14441)   10.0000 (N15216)    7.6954 




    VOLTAGE SOURCE CURRENTS
    NAME         CURRENT

    V_V1        -4.946E-03

    TOTAL POWER DISSIPATION   4.95E-02  WATTS


**** 04/27/24 14:51:56 ******* PSpice Lite (March 2016) ******* ID# 10813 ****

 ** Profile: "SCHEMATIC1-bias"  [ C:\Users\user\Desktop\Codespace\pspicePrj\exp6_1-pspicefiles\schematic1\bias.sim ] 


 ****     OPERATING POINT INFORMATION      TEMPERATURE =   27.000 DEG C


******************************************************************************






**** BIPOLAR JUNCTION TRANSISTORS


NAME         Q_Q1      
MODEL        Q2N4401   
IB           2.52E-05 
IC           4.90E-03 
VBE          6.70E-01 
VBC         -7.03E+00 
VCE          7.70E+00 
BETADC       1.94E+02 
GM           1.87E-01 
RPI          1.21E+03 
RX           0.00E+00 
RO           1.98E+04 
CBE          1.27E-10 
CBC          4.57E-12 
CJS          0.00E+00 
BETAAC       2.27E+02 
CBX/CBX2     0.00E+00 
FT/FT2       2.26E+08 



          JOB CONCLUDED

**** 04/27/24 14:51:56 ******* PSpice Lite (March 2016) ******* ID# 10813 ****

 ** Profile: "SCHEMATIC1-bias"  [ C:\Users\user\Desktop\Codespace\pspicePrj\exp6_1-pspicefiles\schematic1\bias.sim ] 


 ****     JOB STATISTICS SUMMARY


******************************************************************************



  Total job time (using Solver 1)   =         .03
