
**** 06/17/24 23:07:49 ******* PSpice Lite (March 2016) ******* ID# 10813 ****

 ** Profile: "SCHEMATIC1-week15_3"  [ c:\users\user\desktop\codespace\pspiceprj\week15-pspicefiles\schematic1\week15_3.sim ] 


 ****     CIRCUIT DESCRIPTION


******************************************************************************




** Creating circuit file "week15_3.cir" 
** WARNING: THIS AUTOMATICALLY GENERATED FILE MAY BE OVERWRITTEN BY SUBSEQUENT SIMULATIONS

*Libraries: 
* Profile Libraries :
* Local Libraries :
* From [PSPICE NETLIST] section of C:\SPB_Data\cdssetup\OrCAD_PSpice\17.2.0\PSpice.ini file:
.lib "nomd.lib" 

*Analysis directives: 
.TRAN  0 4m 0 10u 
.OPTIONS ADVCONV
.PROBE64 V(alias(*)) I(alias(*)) W(alias(*)) D(alias(*)) NOISE(alias(*)) 
.INC "..\SCHEMATIC1.net" 



**** INCLUDING SCHEMATIC1.net ****
* source WEEK15
R_Rs         N16128 VIN  1k TC=0,0 
R_R2         0 N15114  200k TC=0,0 
V_VCC         N15040 0 12Vdc
C_Cc1         N16128 N15114  100uF  TC=0,0 
R_RC         VOUT1 N15040  5k TC=0,0 
V_Vs         VIN 0  
+SIN 0 50mV 1kHz 0 0 0
C_Cc2         VOUT1 N15128  100uF  TC=0,0 
R_R1         N15114 N15040  750k TC=0,0 
M_M1         VOUT1 N15114 N16468 N16468 M2N6660
R_R3         0 N15128  200k TC=0,0 
R_R4         N15128 N15040  750k TC=0,0 
M_M2         VOUT2 N15128 N16773 N16773 M2N6660
R_R5         VOUT2 N15040  5k TC=0,0 
R_R6         0 N16773  0.5k TC=0,0 
R_R7         0 N16468  0.5k TC=0,0 
C_Cc3         0 N16773  100uF  TC=0,0 

**** RESUMING week15_3.cir ****
.END

**** 06/17/24 23:07:49 ******* PSpice Lite (March 2016) ******* ID# 10813 ****

 ** Profile: "SCHEMATIC1-week15_3"  [ c:\users\user\desktop\codespace\pspiceprj\week15-pspicefiles\schematic1\week15_3.sim ] 


 ****     MOSFET MODEL PARAMETERS


******************************************************************************




               M2N6660         
               NMOS            
       LEVEL    3            
           L    2.000000E-06 
           W     .32         
         VTO    1.8          
          KP    1.047000E-06 
       GAMMA    0            
         PHI     .6          
      LAMBDA    0            
          RD     .4672       
          RS     .02         
          RG  209.5          
          RB    1.000000E-03 
         RDS    6.000000E+06 
          IS   10.000000E-15 
          JS    0            
          PB     .8          
        PBSW     .8          
         CBD  118.000000E-12 
          CJ    0            
        CJSW    0            
        CGSO    1.885000E-12 
        CGDO    7.564000E-12 
        CGBO    0            
         TOX    2.000000E-06 
          XJ    0            
       UCRIT   10.000000E+03 
       DELTA    0            
         ETA    0            
      DIOMOD    1            
         VFB    0            
        LETA    0            
        WETA    0            
          U0    0            
        TEMP    0            
         VDD    5            
       XPART    0            


**** 06/17/24 23:07:49 ******* PSpice Lite (March 2016) ******* ID# 10813 ****

 ** Profile: "SCHEMATIC1-week15_3"  [ c:\users\user\desktop\codespace\pspiceprj\week15-pspicefiles\schematic1\week15_3.sim ] 


 ****     INITIAL TRANSIENT SOLUTION       TEMPERATURE =   27.000 DEG C


******************************************************************************



 NODE   VOLTAGE     NODE   VOLTAGE     NODE   VOLTAGE     NODE   VOLTAGE


(  VIN)    0.0000  (VOUT1)    5.9396  (VOUT2)    5.9396  (N15040)   12.0000     

(N15114)    2.5263 (N15128)    2.5263 (N16128)    0.0000 (N16468)     .6060     

(N16773)     .6060 




    VOLTAGE SOURCE CURRENTS
    NAME         CURRENT

    V_VCC       -2.449E-03
    V_Vs         0.000E+00

    TOTAL POWER DISSIPATION   2.94E-02  WATTS



          JOB CONCLUDED

**** 06/17/24 23:07:49 ******* PSpice Lite (March 2016) ******* ID# 10813 ****

 ** Profile: "SCHEMATIC1-week15_3"  [ c:\users\user\desktop\codespace\pspiceprj\week15-pspicefiles\schematic1\week15_3.sim ] 


 ****     JOB STATISTICS SUMMARY


******************************************************************************



  Total job time (using Solver 1)   =         .05
